set_parameters: 0x14, 0x00, 0x00, 0x01, 0x01, 0x01, 0x01, 0x03, 0xff, 0xff, 0xff, 0xff, 0x00, 0x40, 0x02, 0x00, 0x00, 0x00, 0x20, 0x00, 
start_pmode()
universal(0x30 0x00 0x00 0x00) -> 0x1e
universal(0x30 0x00 0x01 0x00) -> 0x93
universal(0x30 0x00 0x02 0x00) -> 0x0c
universal(0xac 0x80 0x00 0x00) -> 0x00
start_pmode()
set_address(0x0000) // step 32, last 0x01e0
prog_page(....) // write 64 bytes
set_address(0x0000)
read_page(....) // read 64 bytes
end_pmode()

-----
RX: 0x30, 0x20,     // signon
TX: 0x14, 0x10,     // empty reply: STK_INSYNC, STK_OK
RX: 0x30, 0x20, 
TX: 0x14, 0x10, 
RX: 0x30, 0x20, 
TX: 0x14, 0x10, 


RX: 0x41, 0x81, 0x20,  // A - get version SWMAJ
TX: 0x14, 0x01, 0x10, 
RX: 0x41, 0x82, 0x20,  // SWMIN
TX: 0x14, 0x12, 0x10, 

RX: 0x42, 0x14, 0x00, 0x00, 0x01, 0x01, 0x01, 0x01, 0x03, 0xff, 0xff, 0xff, 0xff, 0x00, 0x40, 0x02, 0x00, 0x00, 0x00, 0x20, 0x00, 0x20, 
  // B - set_parameters() + 20 chars

TX: 0x14, 0x10,   // empty resp

RX: 0x45, 0x05, 0x04, 0xd7, 0xa0, 0x01, 0x20,  // E - extended parameters, ignore

TX: 0x14, 0x10,  // OK

RX: 0x50, 0x20,  //// 'P' - start_pmode
TX: 0x14, 0x10,  // OK

RX: 0x56, 0x30, 0x00, 0x00, 0x00, 0x20,  // V - universal + 4 bytes + space
TX: 0x14, 0x1e, 0x10,  // breply (0x1e)
RX: 0x56, 0x30, 0x00, 0x01, 0x00, 0x20,  // V
TX: 0x14, 0x93, 0x10, 
RX: 0x56, 0x30, 0x00, 0x02, 0x00, 0x20,  // V
TX: 0x14, 0x0c, 0x10, 
RX: 0x56, 0xac, 0x80, 0x00, 0x00, 0x20,  // V
TX: 0x14, 0x00, 0x10, 

// repeats init sequence version...
RX: 0x41, 0x81, 0x20, // 'A'
TX: 0x14, 0x01, 0x10, 
RX: 0x41, 0x82, 0x20, 
TX: 0x14, 0x12, 0x10, 
RX: 0x42, 0x14, 0x00, 0x00, 0x01, 0x01, 0x01, 0x01, 0x03, 0xff, 0xff, 0xff, 0xff, 0x00, 0x40, 0x02, 0x00, 0x00, 0x00, 0x20, 0x00, 0x20, 
TX: 0x14, 0x10, 
RX: 0x45, 0x05, 0x04, 0xd7, 0xa0, 0x01, 0x20, 
TX: 0x14, 0x10, 
RX: 0x50, 0x20,  // 'P' - start_pmode
TX: 0x14, 0x10, 

firmware write


RX: 0x55, 0x00, 0x00, 0x20,  // 'U' - set address, low, high, space 0x0000
TX: 0x14, 0x10, 
                 // 'd' - STK_PROG_PAGE, length hi, length low, mem type 0x46='F' (flash) + 64 bytes + space
RX: 0x64, 0x00, 0x40, 0x46, 0x2a, 0xc0, 0x44, 0xc0, 0x43, 0xc0, 0x42, 0xc0, 0x41, 0xc0, 0x40, 0xc0, 0x3f, 0xc0, 0x3e, 0xc0, 0x3d, 0xc0, 0x3c, 0xc0, 0x3b, 0xc0, 0x08, 0xc1, 0x39, 0xc0, 0x38, 0xc0, 0x37, 0xc0, 0x36, 0xc0, 0x35, 0xc0, 0x00, 0x00, 0x3a, 0x00, 0x37, 0x00, 0x00, 0x00, 0x3b, 0x00, 0x38, 0x00, 0x00, 0x00, 0x39, 0x00, 0x36, 0x00, 0x01, 0x01, 0x01, 0x01, 0x01, 0x01, 0x01, 0x01, 0x02, 0x02, 0x02, 0x01, 0x20, 
TX: 0x14, 0x10,  // OK

RX: 0x55, 0x20, 0x00, 0x20,  // 'U' set address, low, high 0x0020
TX: 0x14, 0x10,  // OK, -> 'd' prog page
RX: 0x64, 0x00, 0x40, 0x46, 0x02, 0x04, 0x08, 0x10, 0x20, 0x40, 0x80, 0x04, 0x02, 0x01, 0x00, 0x00, 0x00, 0x00, 0x00, 0x04, 0x03, 0x02, 0x01, 0x00, 0x00, 0x00, 0x11, 0x24, 0x1f, 0xbe, 0xcf, 0xe5, 0xd2, 0xe0, 0xde, 0xbf, 0xcd, 0xbf, 0x10, 0xe0, 0xa0, 0xe6, 0xb0, 0xe0, 0xe8, 0xed, 0xf3, 0xe0, 0x02, 0xc0, 0x05, 0x90, 0x0d, 0x92, 0xaa, 0x36, 0xb1, 0x07, 0xd9, 0xf7, 0x20, 0xe0, 0xaa, 0xe6, 0xb0, 0xe0, 0x01, 0xc0, 0x20, 
TX: 0x14, 0x10,  // ok

RX: 0x55, 0x40, 0x00, 0x20,   // 'U' 0x0040
TX: 0x14, 0x10, 
RX: 0x64, 0x00, 0x40, 0x46, 0x1d, 0x92, 0xa3, 0x37, 0xb2, 0x07, 0xe1, 0xf7, 0x19, 0xd1, 0xa4, 0xc1, 0xb9, 0xcf, 0x82, 0x30, 0xa1, 0xf0, 0x18, 0xf4, 0x81, 0x30, 0x69, 0xf0, 0x08, 0x95, 0x83, 0x30, 0x19, 0xf0, 0x84, 0x30, 0x29, 0xf0, 0x08, 0x95, 0x8f, 0xb5, 0x8f, 0x77, 0x8f, 0xbd, 0x08, 0x95, 0x8f, 0xb5, 0x8f, 0x7d, 0xfb, 0xcf, 0x80, 0xb7, 0x8f, 0x77, 0x80, 0xbf, 0x08, 0x95, 0x80, 0xb7, 0x8f, 0x7d, 0xfb, 0xcf, 0x20, 
TX: 0x14, 0x10, 

RX: 0x55, 0x60, 0x00, 0x20,  // 'U' 0x0060
TX: 0x14, 0x10, 
RX: 0x64, 0x00, 0x40, 0x46, 0x1f, 0x93, 0xcf, 0x93, 0xdf, 0x93, 0x28, 0x2f, 0x30, 0xe0, 0xf9, 0x01, 0xe6, 0x5b, 0xff, 0x4f, 0x84, 0x91, 0xf9, 0x01, 0xe1, 0x5c, 0xff, 0x4f, 0xd4, 0x91, 0xf9, 0x01, 0xec, 0x5c, 0xff, 0x4f, 0xc4, 0x91, 0xcc, 0x23, 0xa1, 0xf0, 0x16, 0x2f, 0x81, 0x11, 0xd1, 0xdf, 0xec, 0x2f, 0xf0, 0xe0, 0xee, 0x0f, 0xff, 0x1f, 0xe8, 0x5d, 0xff, 0x4f, 0xa5, 0x91, 0xb4, 0x91, 0x8f, 0xb7, 0xf8, 0x94, 0x20, 
TX: 0x14, 0x10, 

RX: 0x55, 0x80, 0x00, 0x20,  // 'U' 0x0080
TX: 0x14, 0x10, 
RX: 0x64, 0x00, 0x40, 0x46, 0xec, 0x91, 0x11, 0x11, 0x08, 0xc0, 0xd0, 0x95, 0xde, 0x23, 0xdc, 0x93, 0x8f, 0xbf, 0xdf, 0x91, 0xcf, 0x91, 0x1f, 0x91, 0x08, 0x95, 0xde, 0x2b, 0xf8, 0xcf, 0xcf, 0x93, 0xdf, 0x93, 0x90, 0xe0, 0xfc, 0x01, 0xe1, 0x5c, 0xff, 0x4f, 0x24, 0x91, 0x8c, 0x5c, 0x9f, 0x4f, 0xfc, 0x01, 0x84, 0x91, 0x88, 0x23, 0xd1, 0xf0, 0x90, 0xe0, 0x88, 0x0f, 0x99, 0x1f, 0xfc, 0x01, 0xee, 0x5d, 0xff, 0x4f, 0x20, 
TX: 0x14, 0x10, 

RX: 0x55, 0xa0, 0x00, 0x20, // 'U' 0x00a0
TX: 0x14, 0x10, 
RX: 0x64, 0x00, 0x40, 0x46, 0xa5, 0x91, 0xb4, 0x91, 0xfc, 0x01, 0xe8, 0x5d, 0xff, 0x4f, 0xc5, 0x91, 0xd4, 0x91, 0x61, 0x11, 0x0e, 0xc0, 0x9f, 0xb7, 0xf8, 0x94, 0x8c, 0x91, 0xe2, 0x2f, 0xe0, 0x95, 0x8e, 0x23, 0x8c, 0x93, 0x28, 0x81, 0xe2, 0x23, 0xe8, 0x83, 0x9f, 0xbf, 0xdf, 0x91, 0xcf, 0x91, 0x08, 0x95, 0x8f, 0xb7, 0xf8, 0x94, 0xec, 0x91, 0xe2, 0x2b, 0xec, 0x93, 0x8f, 0xbf, 0xf6, 0xcf, 0x3f, 0xb7, 0xf8, 0x94, 0x20, 
TX: 0x14, 0x10, 

RX: 0x55, 0xc0, 0x00, 0x20,  // 'U' 0x00c0
TX: 0x14, 0x10, 
RX: 0x64, 0x00, 0x40, 0x46, 0x80, 0x91, 0x6f, 0x00, 0x90, 0x91, 0x70, 0x00, 0xa0, 0x91, 0x71, 0x00, 0xb0, 0x91, 0x72, 0x00, 0x22, 0xb7, 0x08, 0xb6, 0x00, 0xfe, 0x05, 0xc0, 0x2f, 0x3f, 0x19, 0xf0, 0x01, 0x96, 0xa1, 0x1d, 0xb1, 0x1d, 0x3f, 0xbf, 0xba, 0x2f, 0xa9, 0x2f, 0x98, 0x2f, 0x88, 0x27, 0xbc, 0x01, 0xcd, 0x01, 0x62, 0x0f, 0x71, 0x1d, 0x81, 0x1d, 0x91, 0x1d, 0x46, 0xe0, 0x66, 0x0f, 0x77, 0x1f, 0x88, 0x1f, 0x20, 
TX: 0x14, 0x10, 

RX: 0x55, 0xe0, 0x00, 0x20,   // 'U' 0x00e0
TX: 0x14, 0x10, 
RX: 0x64, 0x00, 0x40, 0x46, 0x99, 0x1f, 0x4a, 0x95, 0xd1, 0xf7, 0x08, 0x95, 0x8f, 0x92, 0x9f, 0x92, 0xaf, 0x92, 0xbf, 0x92, 0xcf, 0x92, 0xdf, 0x92, 0xef, 0x92, 0xff, 0x92, 0x4b, 0x01, 0x5c, 0x01, 0xcf, 0xdf, 0x6b, 0x01, 0x7c, 0x01, 0xcc, 0xdf, 0x6c, 0x19, 0x7d, 0x09, 0x8e, 0x09, 0x9f, 0x09, 0x68, 0x3e, 0x73, 0x40, 0x81, 0x05, 0x91, 0x05, 0xb0, 0xf3, 0x21, 0xe0, 0x82, 0x1a, 0x91, 0x08, 0xa1, 0x08, 0xb1, 0x08, 0x20, 
TX: 0x14, 0x10, 

RX: 0x55, 0x00, 0x01, 0x20,   // 'U' 0x0100
TX: 0x14, 0x10, 
RX: 0x64, 0x00, 0x40, 0x46, 0x88, 0xee, 0xc8, 0x0e, 0x83, 0xe0, 0xd8, 0x1e, 0xe1, 0x1c, 0xf1, 0x1c, 0x81, 0x14, 0x91, 0x04, 0xa1, 0x04, 0xb1, 0x04, 0x31, 0xf7, 0xff, 0x90, 0xef, 0x90, 0xdf, 0x90, 0xcf, 0x90, 0xbf, 0x90, 0xaf, 0x90, 0x9f, 0x90, 0x8f, 0x90, 0x08, 0x95, 0x1f, 0x92, 0x0f, 0x92, 0x0f, 0xb6, 0x0f, 0x92, 0x11, 0x24, 0x2f, 0x93, 0x3f, 0x93, 0x8f, 0x93, 0x9f, 0x93, 0xaf, 0x93, 0xbf, 0x93, 0x80, 0x91, 0x20, 
TX: 0x14, 0x10, 

RX: 0x55, 0x20, 0x01, 0x20,   // 'U' 0x0120
TX: 0x14, 0x10, 
RX: 0x64, 0x00, 0x40, 0x46, 0x6b, 0x00, 0x90, 0x91, 0x6c, 0x00, 0xa0, 0x91, 0x6d, 0x00, 0xb0, 0x91, 0x6e, 0x00, 0x30, 0x91, 0x6a, 0x00, 0x20, 0xe3, 0x23, 0x0f, 0x2d, 0x37, 0x58, 0xf5, 0x40, 0x96, 0xa1, 0x1d, 0xb1, 0x1d, 0x20, 0x93, 0x6a, 0x00, 0x80, 0x93, 0x6b, 0x00, 0x90, 0x93, 0x6c, 0x00, 0xa0, 0x93, 0x6d, 0x00, 0xb0, 0x93, 0x6e, 0x00, 0x80, 0x91, 0x6f, 0x00, 0x90, 0x91, 0x70, 0x00, 0xa0, 0x91, 0x71, 0x00, 0x20, 
TX: 0x14, 0x10, 

RX: 0x55, 0x40, 0x01, 0x20,   // 'U' 0x0140
TX: 0x14, 0x10, 
RX: 0x64, 0x00, 0x40, 0x46, 0xb0, 0x91, 0x72, 0x00, 0x01, 0x96, 0xa1, 0x1d, 0xb1, 0x1d, 0x80, 0x93, 0x6f, 0x00, 0x90, 0x93, 0x70, 0x00, 0xa0, 0x93, 0x71, 0x00, 0xb0, 0x93, 0x72, 0x00, 0xbf, 0x91, 0xaf, 0x91, 0x9f, 0x91, 0x8f, 0x91, 0x3f, 0x91, 0x2f, 0x91, 0x0f, 0x90, 0x0f, 0xbe, 0x0f, 0x90, 0x1f, 0x90, 0x18, 0x95, 0x23, 0xeb, 0x23, 0x0f, 0x41, 0x96, 0xa1, 0x1d, 0xb1, 0x1d, 0xd2, 0xcf, 0x78, 0x94, 0x80, 0xb7, 0x20, 
TX: 0x14, 0x10, 

RX: 0x55, 0x60, 0x01, 0x20,   // 'U' 0x0160
TX: 0x14, 0x10, 
RX: 0x64, 0x00, 0x40, 0x46, 0x82, 0x60, 0x80, 0xbf, 0x80, 0xb7, 0x81, 0x60, 0x80, 0xbf, 0x83, 0xb7, 0x82, 0x60, 0x83, 0xbf, 0x83, 0xb7, 0x81, 0x60, 0x83, 0xbf, 0x89, 0xb7, 0x81, 0x60, 0x89, 0xbf, 0x1e, 0xbc, 0x8e, 0xb5, 0x82, 0x60, 0x8e, 0xbd, 0x8f, 0xb5, 0x81, 0x60, 0x8f, 0xbd, 0x32, 0x98, 0x31, 0x9a, 0x30, 0x9a, 0x37, 0x9a, 0x60, 0xe0, 0x8a, 0xe0, 0x11, 0xdf, 0x61, 0xe0, 0x8a, 0xe0, 0xe1, 0xde, 0x61, 0xe0, 0x20, 
TX: 0x14, 0x10, 

RX: 0x55, 0x80, 0x01, 0x20,   // 'U' 0x0160
TX: 0x14, 0x10, 
RX: 0x64, 0x00, 0x40, 0x46, 0x80, 0xe0, 0x0b, 0xdf, 0x61, 0xe0, 0x81, 0xe0, 0x08, 0xdf, 0x61, 0xe0, 0x83, 0xe0, 0x05, 0xdf, 0x61, 0xe0, 0x82, 0xe0, 0x02, 0xdf, 0x61, 0xe0, 0x88, 0xe0, 0xff, 0xde, 0x60, 0xe0, 0x80, 0xe0, 0xcf, 0xde, 0x60, 0xe0, 0x81, 0xe0, 0xcc, 0xde, 0x60, 0xe0, 0x83, 0xe0, 0xc9, 0xde, 0x60, 0xe0, 0x82, 0xe0, 0xc6, 0xde, 0x60, 0xe0, 0x88, 0xe0, 0xc3, 0xde, 0xc4, 0xe5, 0xd0, 0xe0, 0x09, 0xe4, 0x20, 
TX: 0x14, 0x10, 

RX: 0x55, 0xa0, 0x01, 0x20,   // 'U' 0x01a0
TX: 0x14, 0x10, 
RX: 0x64, 0x00, 0x40, 0x46, 0x10, 0xe0, 0x3e, 0xe3, 0xe3, 0x2e, 0x30, 0xe0, 0xf3, 0x2e, 0x40, 0xe0, 0xc4, 0x2e, 0x40, 0xe0, 0xd4, 0x2e, 0xfe, 0x01, 0x84, 0x91, 0xf8, 0x01, 0xa4, 0x90, 0xf7, 0x01, 0xb4, 0x90, 0xb1, 0x10, 0x26, 0xc0, 0x2a, 0xe0, 0x82, 0x2e, 0x91, 0x2c, 0x80, 0xe6, 0xa8, 0x2e, 0x80, 0xe0, 0xb8, 0x2e, 0xf5, 0x01, 0x70, 0x80, 0xf2, 0xe0, 0xaf, 0x0e, 0xb1, 0x1c, 0x61, 0xe0, 0x87, 0x2d, 0xa0, 0xde, 0x20, 
TX: 0x14, 0x10, 

RX: 0x55, 0xc0, 0x01, 0x20,   // 'U' 0x01c0
TX: 0x14, 0x10, 
RX: 0x64, 0x00, 0x40, 0x46, 0x64, 0xe1, 0x70, 0xe0, 0x80, 0xe0, 0x90, 0xe0, 0x1f, 0xdf, 0x60, 0xe0, 0x87, 0x2d, 0x98, 0xde, 0x64, 0xeb, 0x70, 0xe0, 0x80, 0xe0, 0x90, 0xe0, 0x17, 0xdf, 0x8a, 0xe6, 0xa8, 0x16, 0x80, 0xe0, 0xb8, 0x06, 0x31, 0xf7, 0xe1, 0xe0, 0x8e, 0x1a, 0x91, 0x08, 0xf1, 0xf6, 0x0d, 0xc0, 0x81, 0x11, 0x6e, 0xde, 0xeb, 0x2d, 0xf0, 0xe0, 0xee, 0x0f, 0xff, 0x1f, 0xe2, 0x5d, 0xff, 0x4f, 0xa5, 0x91, 0x20, 
TX: 0x14, 0x10, 

RX: 0x55, 0xe0, 0x01, 0x20,   // 'U' 0x01e0
TX: 0x14, 0x10, 
RX: 0x64, 0x00, 0x40, 0x46, 0xb4, 0x91, 0x8c, 0x91, 0xa8, 0x22, 0x69, 0xf2, 0xc1, 0x14, 0xd1, 0x04, 0x09, 0xf4, 0xc1, 0xcf, 0x17, 0xde, 0xbf, 0xcf, 0xf8, 0x94, 0xff, 0xcf, 0x00, 0x00, 0x01, 0x00, 0x03, 0x00, 0x02, 0x00, 0x08, 0x00, 0xff, 0xff, 0xff, 0xff, 0xff, 0xff, 0xff, 0xff, 0xff, 0xff, 0xff, 0xff, 0xff, 0xff, 0xff, 0xff, 0xff, 0xff, 0xff, 0xff, 0xff, 0xff, 0xff, 0xff, 0xff, 0xff, 0xff, 0xff, 0xff, 0xff, 0x20, 
TX: 0x14, 0x10, 

// flashing ends

RX: 0x55, 0x00, 0x00, 0x20,   // 'U' 0x0000
TX: 0x14, 0x10, 
RX: 0x74, 0x00, 0x40, 0x46, 0x20, // 'J' STK_READ_PAGE, length hi, length lo, memtype=0x46 'F', space
  // IN SYNC, 64 bytes, STK_OK
TX: 0x14, 0x2a, 0xc0, 0x44, 0xc0, 0x43, 0xc0, 0x42, 0xc0, 0x41, 0xc0, 0x40, 0xc0, 0x3f, 0xc0, 0x3e, 0xc0, 0x3d, 0xc0, 0x3c, 0xc0, 0x3b, 0xc0, 0x08, 0xc1, 0x39, 0xc0, 0x38, 0xc0, 0x37, 0xc0, 0x36, 0xc0, 0x35, 0xc0, 0x00, 0x00, 0x3a, 0x00, 0x37, 0x00, 0x00, 0x00, 0x3b, 0x00, 0x38, 0x00, 0x00, 0x00, 0x39, 0x00, 0x36, 0x00, 0x01, 0x01, 0x01, 0x01, 0x01, 0x01, 0x01, 0x01, 0x02, 0x02, 0x02, 0x01, 0x10, 

RX: 0x55, 0x20, 0x00, 0x20,  // 'U' 0x0020
TX: 0x14, 0x10, 
RX: 0x74, 0x00, 0x40, 0x46, 0x20,  // 'J' read 
TX: 0x14, 0x02, 0x04, 0x08, 0x10, 0x20, 0x40, 0x80, 0x04, 0x02, 0x01, 0x00, 0x00, 0x00, 0x00, 0x00, 0x04, 0x03, 0x02, 0x01, 0x00, 0x00, 0x00, 0x11, 0x24, 0x1f, 0xbe, 0xcf, 0xe5, 0xd2, 0xe0, 0xde, 0xbf, 0xcd, 0xbf, 0x10, 0xe0, 0xa0, 0xe6, 0xb0, 0xe0, 0xe8, 0xed, 0xf3, 0xe0, 0x02, 0xc0, 0x05, 0x90, 0x0d, 0x92, 0xaa, 0x36, 0xb1, 0x07, 0xd9, 0xf7, 0x20, 0xe0, 0xaa, 0xe6, 0xb0, 0xe0, 0x01, 0xc0, 0x10, 

RX: 0x55, 0x40, 0x00, 0x20, 
TX: 0x14, 0x10, 
RX: 0x74, 0x00, 0x40, 0x46, 0x20, 
TX: 0x14, 0x1d, 0x92, 0xa3, 0x37, 0xb2, 0x07, 0xe1, 0xf7, 0x19, 0xd1, 0xa4, 0xc1, 0xb9, 0xcf, 0x82, 0x30, 0xa1, 0xf0, 0x18, 0xf4, 0x81, 0x30, 0x69, 0xf0, 0x08, 0x95, 0x83, 0x30, 0x19, 0xf0, 0x84, 0x30, 0x29, 0xf0, 0x08, 0x95, 0x8f, 0xb5, 0x8f, 0x77, 0x8f, 0xbd, 0x08, 0x95, 0x8f, 0xb5, 0x8f, 0x7d, 0xfb, 0xcf, 0x80, 0xb7, 0x8f, 0x77, 0x80, 0xbf, 0x08, 0x95, 0x80, 0xb7, 0x8f, 0x7d, 0xfb, 0xcf, 0x10, 

RX: 0x55, 0x60, 0x00, 0x20, 
TX: 0x14, 0x10, 
RX: 0x74, 0x00, 0x40, 0x46, 0x20, 
TX: 0x14, 0x1f, 0x93, 0xcf, 0x93, 0xdf, 0x93, 0x28, 0x2f, 0x30, 0xe0, 0xf9, 0x01, 0xe6, 0x5b, 0xff, 0x4f, 0x84, 0x91, 0xf9, 0x01, 0xe1, 0x5c, 0xff, 0x4f, 0xd4, 0x91, 0xf9, 0x01, 0xec, 0x5c, 0xff, 0x4f, 0xc4, 0x91, 0xcc, 0x23, 0xa1, 0xf0, 0x16, 0x2f, 0x81, 0x11, 0xd1, 0xdf, 0xec, 0x2f, 0xf0, 0xe0, 0xee, 0x0f, 0xff, 0x1f, 0xe8, 0x5d, 0xff, 0x4f, 0xa5, 0x91, 0xb4, 0x91, 0x8f, 0xb7, 0xf8, 0x94, 0x10, 

RX: 0x55, 0x80, 0x00, 0x20, 
TX: 0x14, 0x10, 
RX: 0x74, 0x00, 0x40, 0x46, 0x20, 
TX: 0x14, 0xec, 0x91, 0x11, 0x11, 0x08, 0xc0, 0xd0, 0x95, 0xde, 0x23, 0xdc, 0x93, 0x8f, 0xbf, 0xdf, 0x91, 0xcf, 0x91, 0x1f, 0x91, 0x08, 0x95, 0xde, 0x2b, 0xf8, 0xcf, 0xcf, 0x93, 0xdf, 0x93, 0x90, 0xe0, 0xfc, 0x01, 0xe1, 0x5c, 0xff, 0x4f, 0x24, 0x91, 0x8c, 0x5c, 0x9f, 0x4f, 0xfc, 0x01, 0x84, 0x91, 0x88, 0x23, 0xd1, 0xf0, 0x90, 0xe0, 0x88, 0x0f, 0x99, 0x1f, 0xfc, 0x01, 0xee, 0x5d, 0xff, 0x4f, 0x10, 

RX: 0x55, 0xa0, 0x00, 0x20, 
TX: 0x14, 0x10, 
RX: 0x74, 0x00, 0x40, 0x46, 0x20, 
TX: 0x14, 0xa5, 0x91, 0xb4, 0x91, 0xfc, 0x01, 0xe8, 0x5d, 0xff, 0x4f, 0xc5, 0x91, 0xd4, 0x91, 0x61, 0x11, 0x0e, 0xc0, 0x9f, 0xb7, 0xf8, 0x94, 0x8c, 0x91, 0xe2, 0x2f, 0xe0, 0x95, 0x8e, 0x23, 0x8c, 0x93, 0x28, 0x81, 0xe2, 0x23, 0xe8, 0x83, 0x9f, 0xbf, 0xdf, 0x91, 0xcf, 0x91, 0x08, 0x95, 0x8f, 0xb7, 0xf8, 0x94, 0xec, 0x91, 0xe2, 0x2b, 0xec, 0x93, 0x8f, 0xbf, 0xf6, 0xcf, 0x3f, 0xb7, 0xf8, 0x94, 0x10, 

RX: 0x55, 0xc0, 0x00, 0x20, 
TX: 0x14, 0x10, 
RX: 0x74, 0x00, 0x40, 0x46, 0x20, 
TX: 0x14, 0x80, 0x91, 0x6f, 0x00, 0x90, 0x91, 0x70, 0x00, 0xa0, 0x91, 0x71, 0x00, 0xb0, 0x91, 0x72, 0x00, 0x22, 0xb7, 0x08, 0xb6, 0x00, 0xfe, 0x05, 0xc0, 0x2f, 0x3f, 0x19, 0xf0, 0x01, 0x96, 0xa1, 0x1d, 0xb1, 0x1d, 0x3f, 0xbf, 0xba, 0x2f, 0xa9, 0x2f, 0x98, 0x2f, 0x88, 0x27, 0xbc, 0x01, 0xcd, 0x01, 0x62, 0x0f, 0x71, 0x1d, 0x81, 0x1d, 0x91, 0x1d, 0x46, 0xe0, 0x66, 0x0f, 0x77, 0x1f, 0x88, 0x1f, 0x10, 

RX: 0x55, 0xe0, 0x00, 0x20, 
TX: 0x14, 0x10, 
RX: 0x74, 0x00, 0x40, 0x46, 0x20, 
TX: 0x14, 0x99, 0x1f, 0x4a, 0x95, 0xd1, 0xf7, 0x08, 0x95, 0x8f, 0x92, 0x9f, 0x92, 0xaf, 0x92, 0xbf, 0x92, 0xcf, 0x92, 0xdf, 0x92, 0xef, 0x92, 0xff, 0x92, 0x4b, 0x01, 0x5c, 0x01, 0xcf, 0xdf, 0x6b, 0x01, 0x7c, 0x01, 0xcc, 0xdf, 0x6c, 0x19, 0x7d, 0x09, 0x8e, 0x09, 0x9f, 0x09, 0x68, 0x3e, 0x73, 0x40, 0x81, 0x05, 0x91, 0x05, 0xb0, 0xf3, 0x21, 0xe0, 0x82, 0x1a, 0x91, 0x08, 0xa1, 0x08, 0xb1, 0x08, 0x10, 

RX: 0x55, 0x00, 0x01, 0x20, 
TX: 0x14, 0x10, 
RX: 0x74, 0x00, 0x40, 0x46, 0x20, 
TX: 0x14, 0x88, 0xee, 0xc8, 0x0e, 0x83, 0xe0, 0xd8, 0x1e, 0xe1, 0x1c, 0xf1, 0x1c, 0x81, 0x14, 0x91, 0x04, 0xa1, 0x04, 0xb1, 0x04, 0x31, 0xf7, 0xff, 0x90, 0xef, 0x90, 0xdf, 0x90, 0xcf, 0x90, 0xbf, 0x90, 0xaf, 0x90, 0x9f, 0x90, 0x8f, 0x90, 0x08, 0x95, 0x1f, 0x92, 0x0f, 0x92, 0x0f, 0xb6, 0x0f, 0x92, 0x11, 0x24, 0x2f, 0x93, 0x3f, 0x93, 0x8f, 0x93, 0x9f, 0x93, 0xaf, 0x93, 0xbf, 0x93, 0x80, 0x91, 0x10, 

RX: 0x55, 0x20, 0x01, 0x20, 
TX: 0x14, 0x10, 
RX: 0x74, 0x00, 0x40, 0x46, 0x20, 
TX: 0x14, 0x6b, 0x00, 0x90, 0x91, 0x6c, 0x00, 0xa0, 0x91, 0x6d, 0x00, 0xb0, 0x91, 0x6e, 0x00, 0x30, 0x91, 0x6a, 0x00, 0x20, 0xe3, 0x23, 0x0f, 0x2d, 0x37, 0x58, 0xf5, 0x40, 0x96, 0xa1, 0x1d, 0xb1, 0x1d, 0x20, 0x93, 0x6a, 0x00, 0x80, 0x93, 0x6b, 0x00, 0x90, 0x93, 0x6c, 0x00, 0xa0, 0x93, 0x6d, 0x00, 0xb0, 0x93, 0x6e, 0x00, 0x80, 0x91, 0x6f, 0x00, 0x90, 0x91, 0x70, 0x00, 0xa0, 0x91, 0x71, 0x00, 0x10, 

RX: 0x55, 0x40, 0x01, 0x20, 
TX: 0x14, 0x10, 
RX: 0x74, 0x00, 0x40, 0x46, 0x20, 
TX: 0x14, 0xb0, 0x91, 0x72, 0x00, 0x01, 0x96, 0xa1, 0x1d, 0xb1, 0x1d, 0x80, 0x93, 0x6f, 0x00, 0x90, 0x93, 0x70, 0x00, 0xa0, 0x93, 0x71, 0x00, 0xb0, 0x93, 0x72, 0x00, 0xbf, 0x91, 0xaf, 0x91, 0x9f, 0x91, 0x8f, 0x91, 0x3f, 0x91, 0x2f, 0x91, 0x0f, 0x90, 0x0f, 0xbe, 0x0f, 0x90, 0x1f, 0x90, 0x18, 0x95, 0x23, 0xeb, 0x23, 0x0f, 0x41, 0x96, 0xa1, 0x1d, 0xb1, 0x1d, 0xd2, 0xcf, 0x78, 0x94, 0x80, 0xb7, 0x10, 

RX: 0x55, 0x60, 0x01, 0x20, 
TX: 0x14, 0x10, 
RX: 0x74, 0x00, 0x40, 0x46, 0x20, 
TX: 0x14, 0x82, 0x60, 0x80, 0xbf, 0x80, 0xb7, 0x81, 0x60, 0x80, 0xbf, 0x83, 0xb7, 0x82, 0x60, 0x83, 0xbf, 0x83, 0xb7, 0x81, 0x60, 0x83, 0xbf, 0x89, 0xb7, 0x81, 0x60, 0x89, 0xbf, 0x1e, 0xbc, 0x8e, 0xb5, 0x82, 0x60, 0x8e, 0xbd, 0x8f, 0xb5, 0x81, 0x60, 0x8f, 0xbd, 0x32, 0x98, 0x31, 0x9a, 0x30, 0x9a, 0x37, 0x9a, 0x60, 0xe0, 0x8a, 0xe0, 0x11, 0xdf, 0x61, 0xe0, 0x8a, 0xe0, 0xe1, 0xde, 0x61, 0xe0, 0x10, 

RX: 0x55, 0x80, 0x01, 0x20, 
TX: 0x14, 0x10, 
RX: 0x74, 0x00, 0x40, 0x46, 0x20, 
TX: 0x14, 0x80, 0xe0, 0x0b, 0xdf, 0x61, 0xe0, 0x81, 0xe0, 0x08, 0xdf, 0x61, 0xe0, 0x83, 0xe0, 0x05, 0xdf, 0x61, 0xe0, 0x82, 0xe0, 0x02, 0xdf, 0x61, 0xe0, 0x88, 0xe0, 0xff, 0xde, 0x60, 0xe0, 0x80, 0xe0, 0xcf, 0xde, 0x60, 0xe0, 0x81, 0xe0, 0xcc, 0xde, 0x60, 0xe0, 0x83, 0xe0, 0xc9, 0xde, 0x60, 0xe0, 0x82, 0xe0, 0xc6, 0xde, 0x60, 0xe0, 0x88, 0xe0, 0xc3, 0xde, 0xc4, 0xe5, 0xd0, 0xe0, 0x09, 0xe4, 0x10, 

RX: 0x55, 0xa0, 0x01, 0x20, 
TX: 0x14, 0x10, 
RX: 0x74, 0x00, 0x40, 0x46, 0x20, 
TX: 0x14, 0x10, 0xe0, 0x3e, 0xe3, 0xe3, 0x2e, 0x30, 0xe0, 0xf3, 0x2e, 0x40, 0xe0, 0xc4, 0x2e, 0x40, 0xe0, 0xd4, 0x2e, 0xfe, 0x01, 0x84, 0x91, 0xf8, 0x01, 0xa4, 0x90, 0xf7, 0x01, 0xb4, 0x90, 0xb1, 0x10, 0x26, 0xc0, 0x2a, 0xe0, 0x82, 0x2e, 0x91, 0x2c, 0x80, 0xe6, 0xa8, 0x2e, 0x80, 0xe0, 0xb8, 0x2e, 0xf5, 0x01, 0x70, 0x80, 0xf2, 0xe0, 0xaf, 0x0e, 0xb1, 0x1c, 0x61, 0xe0, 0x87, 0x2d, 0xa0, 0xde, 0x10, 

RX: 0x55, 0xc0, 0x01, 0x20, 
TX: 0x14, 0x10, 
RX: 0x74, 0x00, 0x40, 0x46, 0x20, 
TX: 0x14, 0x64, 0xe1, 0x70, 0xe0, 0x80, 0xe0, 0x90, 0xe0, 0x1f, 0xdf, 0x60, 0xe0, 0x87, 0x2d, 0x98, 0xde, 0x64, 0xeb, 0x70, 0xe0, 0x80, 0xe0, 0x90, 0xe0, 0x17, 0xdf, 0x8a, 0xe6, 0xa8, 0x16, 0x80, 0xe0, 0xb8, 0x06, 0x31, 0xf7, 0xe1, 0xe0, 0x8e, 0x1a, 0x91, 0x08, 0xf1, 0xf6, 0x0d, 0xc0, 0x81, 0x11, 0x6e, 0xde, 0xeb, 0x2d, 0xf0, 0xe0, 0xee, 0x0f, 0xff, 0x1f, 0xe2, 0x5d, 0xff, 0x4f, 0xa5, 0x91, 0x10, 

RX: 0x55, 0xe0, 0x01, 0x20, 
TX: 0x14, 0x10, 
RX: 0x74, 0x00, 0x40, 0x46, 0x20, 
TX: 0x14, 0xb4, 0x91, 0x8c, 0x91, 0xa8, 0x22, 0x69, 0xf2, 0xc1, 0x14, 0xd1, 0x04, 0x09, 0xf4, 0xc1, 0xcf, 0x17, 0xde, 0xbf, 0xcf, 0xf8, 0x94, 0xff, 0xcf, 0x00, 0x00, 0x01, 0x00, 0x03, 0x00, 0x02, 0x00, 0x08, 0x00, 0xff, 0xff, 0xff, 0xff, 0xff, 0xff, 0xff, 0xff, 0xff, 0xff, 0xff, 0xff, 0xff, 0xff, 0xff, 0xff, 0xff, 0xff, 0xff, 0xff, 0xff, 0xff, 0xff, 0xff, 0xff, 0xff, 0xff, 0xff, 0xff, 0xff, 0x10, 

RX: 0x51, 0x20,  // 'Q' - end pmode + reset
TX: 0x14, 0x10, 
